ZPLOT2 ASCII
  Measured Data, Software:    1.0.0
  Freq(Hz)	Ampl	Bias	Time(Sec)	Z'(a)	Z''(b)	GD	Err	Range
End Comments
1.000000E+04	0.000000E+00	0.000000E+00	0.000000E+00	1.090092E+02	-2.655568E+01	0.000000E+00	0	0
7.196857E+03	0.000000E+00	0.000000E+00	0.000000E+00	1.120578E+02	-3.516623E+01	0.000000E+00	0	0
5.179475E+03	0.000000E+00	0.000000E+00	0.000000E+00	1.169062E+02	-4.646638E+01	0.000000E+00	0	0
3.727594E+03	0.000000E+00	0.000000E+00	0.000000E+00	1.248346E+02	-6.085229E+01	0.000000E+00	0	0
2.682696E+03	0.000000E+00	0.000000E+00	0.000000E+00	1.377705E+02	-7.808935E+01	0.000000E+00	0	0
1.930698E+03	0.000000E+00	0.000000E+00	0.000000E+00	1.579717E+02	-9.648059E+01	0.000000E+00	0	0
1.389495E+03	0.000000E+00	0.000000E+00	0.000000E+00	1.866369E+02	-1.122046E+02	0.000000E+00	0	0
1.000000E+03	0.000000E+00	0.000000E+00	0.000000E+00	2.216908E+02	-1.203991E+02	0.000000E+00	0	0
7.196857E+02	0.000000E+00	0.000000E+00	0.000000E+00	2.574374E+02	-1.186506E+02	0.000000E+00	0	0
5.179475E+02	0.000000E+00	0.000000E+00	0.000000E+00	2.881184E+02	-1.093103E+02	0.000000E+00	0	0
3.727594E+02	0.000000E+00	0.000000E+00	0.000000E+00	3.115631E+02	-9.729570E+01	0.000000E+00	0	0
2.682696E+02	0.000000E+00	0.000000E+00	0.000000E+00	3.289589E+02	-8.655395E+01	0.000000E+00	0	0
1.930698E+02	0.000000E+00	0.000000E+00	0.000000E+00	3.426391E+02	-7.888868E+01	0.000000E+00	0	0
1.389495E+02	0.000000E+00	0.000000E+00	0.000000E+00	3.546493E+02	-7.458787E+01	0.000000E+00	0	0
1.000000E+02	0.000000E+00	0.000000E+00	0.000000E+00	3.663999E+02	-7.325594E+01	0.000000E+00	0	0
7.196857E+01	0.000000E+00	0.000000E+00	0.000000E+00	3.787780E+02	-7.429569E+01	0.000000E+00	0	0
5.179475E+01	0.000000E+00	0.000000E+00	0.000000E+00	3.923264E+02	-7.710220E+01	0.000000E+00	0	0
3.727594E+01	0.000000E+00	0.000000E+00	0.000000E+00	4.073705E+02	-8.111482E+01	0.000000E+00	0	0
2.682696E+01	0.000000E+00	0.000000E+00	0.000000E+00	4.240859E+02	-8.581730E+01	0.000000E+00	0	0
1.930698E+01	0.000000E+00	0.000000E+00	0.000000E+00	4.425279E+02	-9.072748E+01	0.000000E+00	0	0
1.389495E+01	0.000000E+00	0.000000E+00	0.000000E+00	4.626383E+02	-9.539317E+01	0.000000E+00	0	0
1.000000E+01	0.000000E+00	0.000000E+00	0.000000E+00	4.842455E+02	-9.939925E+01	0.000000E+00	0	0
7.196857E+00	0.000000E+00	0.000000E+00	0.000000E+00	5.070682E+02	-1.023853E+02	0.000000E+00	0	0
5.179475E+00	0.000000E+00	0.000000E+00	0.000000E+00	5.307275E+02	-1.040694E+02	0.000000E+00	0	0
3.727594E+00	0.000000E+00	0.000000E+00	0.000000E+00	5.547733E+02	-1.042706E+02	0.000000E+00	0	0
2.682696E+00	0.000000E+00	0.000000E+00	0.000000E+00	5.787208E+02	-1.029242E+02	0.000000E+00	0	0
1.930698E+00	0.000000E+00	0.000000E+00	0.000000E+00	6.020931E+02	-1.000827E+02	0.000000E+00	0	0
1.389495E+00	0.000000E+00	0.000000E+00	0.000000E+00	6.244617E+02	-9.590258E+01	0.000000E+00	0	0
1.000000E+00	0.000000E+00	0.000000E+00	0.000000E+00	6.454787E+02	-9.061813E+01	0.000000E+00	0	0
