EXPLAIN
TAG	EISPOT
TITLE	LABEL	Potentiostatic EIS	Test &Identifier
DATE	LABEL	01-01-2022	Date
TIME	LABEL	00:00:01	Time
NOTES	NOTES	1	&Notes...
	
PSTAT	PSTAT	REFxxx-yyyyy	Potentiostat
VDC	POTEN	0,00000E+000	F	DC &Voltage (V)
FREQINIT	QUANT	1,00000E+004	Initial Fre&q. (Hz)
FREQFINAL	QUANT	1,00000E+000	Final Fre&q. (Hz)
PTSPERDEC	QUANT	7,00000E+000	Points/&decade
VAC	QUANT	1,00000E+001	AC &Voltage (mV rms)
AREA	QUANT	1,00000E+000	&Area (cm^2)
CONDIT	TWOPARAM	F	1,50000E+001	0,00000E+000	Conditionin&g	Time(s)	E(V)
DELAY	TWOPARAM	T	1,00000E+001	0,00000E+000	Init. De&lay	Time(s)	Stab.(mV/s)
SPEED	SELECTOR	1	&Optimize for:
THD	SELECTOR	0	T&HD
DRIFTCOR	SELECTOR	0	&Drift Correction
ZGUESS	QUANT	1,00000E+002	E&stimated Z (ohms)
OCVCURVE	TABLE	40
	Pt	T	Vf	Vm	Ach	Over	Temp
	#	s	V vs. Ref.	V	V	bits	deg C
	0	0,25	-3,34979E-002	-3,34979E-002	-3,48917E-002	...........	-327,67
	1	0,5	-3,34979E-002	-3,34995E-002	-3,48621E-002	...........	-327,67
	2	0,75	-3,34980E-002	-3,34955E-002	-3,48835E-002	...........	-327,67
	3	1	-3,34980E-002	-3,34959E-002	-3,48533E-002	...........	-327,67
	4	1,25	-3,34975E-002	-3,34926E-002	-3,48916E-002	...........	-327,67
	5	1,5	-3,34965E-002	-3,34909E-002	-3,48560E-002	...........	-327,67
	6	1,75	-3,34951E-002	-3,34952E-002	-3,48815E-002	...........	-327,67
	7	2	-3,34938E-002	-3,34915E-002	-3,48572E-002	...........	-327,67
	8	2,25	-3,34931E-002	-3,34941E-002	-3,48956E-002	...........	-327,67
	9	2,5	-3,34929E-002	-3,34920E-002	-3,48565E-002	...........	-327,67
	10	2,75	-3,34930E-002	-3,34955E-002	-3,48877E-002	...........	-327,67
	11	3	-3,34931E-002	-3,34930E-002	-3,48583E-002	...........	-327,67
	12	3,25	-3,34935E-002	-3,34957E-002	-3,48803E-002	...........	-327,67
	13	3,5	-3,34938E-002	-3,34935E-002	-3,48487E-002	...........	-327,67
	14	3,75	-3,34942E-002	-3,34945E-002	-3,48869E-002	...........	-327,67
	15	4	-3,34943E-002	-3,34923E-002	-3,48519E-002	...........	-327,67
	16	4,25	-3,34941E-002	-3,34932E-002	-3,48692E-002	...........	-327,67
	17	4,5	-3,34936E-002	-3,34861E-002	-3,48380E-002	...........	-327,67
	18	4,75	-3,34926E-002	-3,34919E-002	-3,48745E-002	...........	-327,67
	19	5	-3,34915E-002	-3,34920E-002	-3,48445E-002	...........	-327,67
	20	5,25	-3,34908E-002	-3,34926E-002	-3,48713E-002	...........	-327,67
	21	5,5	-3,34908E-002	-3,34892E-002	-3,48513E-002	...........	-327,67
	22	5,75	-3,34912E-002	-3,34935E-002	-3,48789E-002	...........	-327,67
	23	6	-3,34913E-002	-3,34880E-002	-3,48424E-002	...........	-327,67
	24	6,25	-3,34912E-002	-3,34904E-002	-3,48716E-002	...........	-327,67
	25	6,5	-3,34908E-002	-3,34900E-002	-3,48443E-002	...........	-327,67
	26	6,75	-3,34904E-002	-3,34914E-002	-3,48715E-002	...........	-327,67
	27	7	-3,34901E-002	-3,34847E-002	-3,48476E-002	...........	-327,67
	28	7,25	-3,34897E-002	-3,34891E-002	-3,48847E-002	...........	-327,67
	29	7,5	-3,34890E-002	-3,34884E-002	-3,48480E-002	...........	-327,67
	30	7,75	-3,34884E-002	-3,34888E-002	-3,48683E-002	...........	-327,67
	31	8	-3,34883E-002	-3,34907E-002	-3,48408E-002	...........	-327,67
	32	8,25	-3,34885E-002	-3,34872E-002	-3,48625E-002	...........	-327,67
	33	8,5	-3,34888E-002	-3,34851E-002	-3,48420E-002	...........	-327,67
	34	8,75	-3,34885E-002	-3,34859E-002	-3,48583E-002	...........	-327,67
	35	9	-3,34876E-002	-3,34864E-002	-3,48424E-002	...........	-327,67
	36	9,25	-3,34867E-002	-3,34874E-002	-3,48619E-002	...........	-327,67
	37	9,5	-3,34863E-002	-3,34839E-002	-3,48387E-002	...........	-327,67
	38	9,75	-3,34861E-002	-3,34836E-002	-3,48553E-002	...........	-327,67
	39	10	-3,34858E-002	-3,34893E-002	-3,48391E-002	...........	-327,67
EOC	QUANT	-0,0334858	Open Circuit (V)
PSTATMODEL	IQUANT	87	Pstat Model
PSTATSECTION	LABEL	REFxxx-yyyyy	Pstat Section
PSTATSERIALNO	LABEL	yyyyy	Pstat Serial Number
CTRLMODE	IQUANT	1	Control Mode
ELECTROMETER	IQUANT	0	RE=0 or CS=1
IESTAB	IQUANT	0	I/E Stability
CASPEED	IQUANT	3	Control Amp Speed
CONVENTION	IQUANT	1	Current Convention
ICHRANGE	IQUANT	2	Ich Range
ICHRANGEMODE	TOGGLE	F	Ich Auto Range
ICHOFFSETENABLE	TOGGLE	T	Ich Offset Enable
ICHOFFSET	QUANT	0	Ich Offset (V)
ICHFILTER	IQUANT	3	Ich Filter
VCHRANGE	IQUANT	2	Vch Range
VCHRANGEMODE	TOGGLE	F	Vch Auto Range
VCHOFFSETENABLE	TOGGLE	T	Vch Offset Enable
VCHOFFSET	QUANT	0	Vch Offset (V)
VCHFILTER	IQUANT	3	Vch Filter
ACHRANGE	IQUANT	2	Ach Range
ACHOFFSETENABLE	TOGGLE	F	Ach Offset Enable
ACHOFFSET	QUANT	0	Ach Offset (V)
ACHFILTER	IQUANT	1	Ach Filter
IERANGELOWERLIMIT	IQUANT	1	I/E Range Lower Limit
IERANGEMODE	TOGGLE	F	I/E AutoRange
IERANGE	IQUANT	1	I/E Range
POSFEEDENABLE	TOGGLE	F	Positive Feedback IR Comp
POSFEEDRESISTANCE	QUANT	0	Positive Feedback Resistance (ohm)
ACHSELECT	IQUANT	4	Ach Select
SENSECABLEID	IQUANT	7	Sense Cable ID
PWRCABLEID	IQUANT	7	Power Cable ID
DCCALDATE	LABEL	1/1/2022	DC Calibration Date
ACCALDATE	LABEL	1/1/2022	AC Calibration Date
THERMOSELECT	IQUANT	1	Thermo Select
FRAMEWORKVERSION	LABEL	7.9.0	Framework Version
INSTRUMENTVERSION	LABEL	4.60	Instrument Version
ZCURVE	TABLE
	Pt	Time	Freq	Zreal	Zimag	Zsig	Zmod	Zphz	Idc	Vdc	IERange
	#	s	Hz	ohm	ohm	V	ohm	°	A	V	#
	0	0	10000	109,00918219439	-26,5556798765152	1	112,197174369026	-13,6911218923273	8,08E-08	-4,54E-05	8
	1	2	7196,85673001152	112,057759954682	-35,1662256016599	1	117,446179116768	-17,4230211915111	6,65E-08	-4,73E-05	8
	2	3	5179,47467923121	116,906245842316	-46,4663772865298	1	125,802204015185	-21,6761891070724	8,77E-08	-3,97E-05	8
	3	4	3727,59372031494	124,834566504841	-60,8522924167586	1	138,87645764069	-25,9875429865239	8,18E-08	-4,08E-05	8
	4	6	2682,69579527973	137,770479052544	-78,0893530523511	1	158,362407024212	-29,5448936007317	6,98E-08	-4,14E-05	8
	5	7	1930,69772888325	157,971701100428	-96,480585382064	1	185,104191482064	-31,4143322080054	6,35E-08	-4,67E-05	8
	6	8	1389,49549437314	186,636916072821	-112,204629862651	1	217,768724576758	-31,0139502226951	6,08E-08	-4,48E-05	8
	7	10	1000	221,690825019137	-120,39912459346	1	252,275189229019	-28,5061529898265	7,71E-08	-5,21E-05	8
	8	11	719,685673001152	257,437427532301	-118,650600986126	1	283,464273249413	-24,7445521749602	7,78E-08	-5,33E-05	8
	9	13	517,947467923121	288,118363568086	-109,310321223647	1	308,157326298059	-20,7764348369639	5,89E-08	-5,18E-05	8
	10	14	372,759372031494	311,563115366785	-97,2956995983817	1	326,401636051958	-17,3426693012146	7,09E-08	-5,54E-05	8
	11	15	268,269579527973	328,958937177027	-86,5539533982431	1	340,155213391629	-14,7412517003166	6,18E-08	-4,99E-05	8
	12	17	193,069772888325	342,639052460841	-78,8886755242402	1	351,60338934264	-12,9657381969508	6,54E-08	-4,69E-05	8
	13	18	138,949549437314	354,649295730333	-74,587868105523	1	362,407882130823	-11,8770331747507	7,56E-08	-4,90E-05	8
	14	19	100	366,399861210884	-73,2559400473505	1	373,651296060346	-11,3063189336902	9,39E-08	-4,52E-05	8
	15	21	71,9685673001152	378,777952592123	-74,2956945797458	1	385,995579771281	-11,0974385446785	9,79E-08	-4,72E-05	8
	16	22	51,7947467923121	392,326418700802	-77,1022034740841	1	399,830925006003	-11,118395853544	9,21E-08	-4,68E-05	8
	17	23	37,2759372031494	407,370451984566	-81,1148201939911	1	415,36766750099	-11,2613371450616	8,25E-08	-4,07E-05	8
	18	25	26,8269579527973	424,085899178091	-85,8172962476514	1	432,681705433621	-11,4397963485187	7,51E-08	-5,11E-05	8
	19	26	19,3069772888325	442,527901931489	-90,7274808764653	1	451,732686191817	-11,5862769166524	8,19E-08	-4,64E-05	8
	20	27	13,8949549437314	462,638253653398	-95,3931737367316	1	472,37062920871	-11,6507559780037	6,39E-08	-5,30E-05	8
	21	29	10	484,245515868873	-99,3992549174071	1	494,34191762104	-11,599764518498	7,52E-08	-4,73E-05	8
	22	30	7,19685673001152	507,068153598917	-102,385330669065	1	517,30152554427	-11,4154670158994	7,32E-08	-5,20E-05	8
	23	32	5,17947467923121	530,727486829165	-104,069381709955	1	540,834634140135	-11,0942603395492	1,12E-07	-5,17E-05	8
	24	33	3,72759372031494	554,773334457305	-104,270595391674	1	564,487209499215	-10,6446551778571	1,02E-08	-4,85E-05	7
	25	34	2,68269579527973	578,720842454073	-102,92415906369	1	587,802004087873	-10,0844803271899	1,05E-08	-4,41E-05	7
	26	36	1,93069772888325	602,093062736189	-100,082675458352	1	610,354485624499	-9,43767616088011	1,22E-08	-4,85E-05	7
	27	37	1,38949549437314	624,461682820694	-95,9025788682872	1	631,78295160984	-8,73106340326188	0,00000001094055	-0,0000413163	7
	28	38	1	645,478700150494	-90,618128307383	1	651,808558954165	-7,99147049580777	0,00000001143185	-0,00004951398	7
