EC-Lab ASCII FILE
Nb header lines : 68                          

Potentio Electrochemical Impedance Spectroscopy

Run on channel : 1 (SN SERIAL)
User : 
Electrode connection : standard
Ewe ctrl range : min = 00.00 V, max = 00.00 V
Ewe,I filtering : 00 kHz
Safety Limits :
	Do not start on E overload
Channel : Grounded
Acquisition started on : DD/MM/YYYY HH:MM:SS
Technique started on : DD/MM/YYYY HH:MM:SS
Saved on :
	File : test_data.mpr
	Directory : C:\Users\user\Documents\EIS_data\
	Host : 127.0.0.1
Device : MODEL (SN SERIAL)
Address : USB
EC-Lab for windows v11.33 (software)
Internet server v11.32 (firmware)
Command interpretor v11.33 (firmware)
Electrode material : 
Initial state : 
Electrolyte : 
Comments : 
Cable : standard
Reference electrode : REFERENCE ELECTRODE
Electrode surface area : 0.000 cm²
Characteristic mass : 0.000 g
Equivalent Weight : 0.000 g/eq.
Density : 0.000 g/cm3
Record Ece
Text export
   Mode : Standard
   Time format : Elapsed
Cycle Definition : Charge/Discharge alternance
Mode                Single sine         
E (V)               0.0000              
vs.                 Emeas               
tE (h:m:s)          0:00:0.0000         
record              0                   
dI                  0.000               
unit dI             mA                  
dt (s)              0.000               
fi                  10.000             
unit fi             kHz                 
ff                  1.000               
unit ff             Hz                  
Nd                  7                   
Points              per decade          
spacing             Logarithmic         
Va (mV)             00.0                
pw                  0.00                
Na                  0                   
corr                0                   
E range min (V)     00.000             
E range max (V)     00.000              
I Range             0 A                 
Bandwidth           0                   
nc cycles           0                   
goto Ns'            0                   
nr cycles           0                   
inc. cycle          0                   

freq/Hz	Re(Z)/Ohm	-Im(Z)/Ohm	|Z|/Ohm	Phase(Z)/deg	time/s	<Ewe>/V	<I>/mA	Cs/µF	Cp/µF	cycle number	I Range	|Ewe|/V	|I|/A	(Q-Qo)/mA.h	<Ece>/V	|Ece|/V	Phase(Zce)/deg	|Zce|/Ohm	Re(Zce)/Ohm	-Im(Zce)/Ohm	Phase(Zwe-ce)/deg	|Zwe-ce|/Ohm	Re(Zwe-ce)/Ohm	-Im(Zwe-ce)/Ohm	Re(Y)/Ohm-1	Im(Y)/Ohm-1	|Y|/Ohm-1	Phase(Y)/deg	dq/mA.h	
1.0000000E+04	1.0900918E+02	2.6555680E+01	0.0000000E+00	0.0000000E+00	0.000000000000000E+00	0.0000000E+00	0.0000000E+00	0.0000000E+00	0.0000000E+00	0.000000000000000E+00	0	0.0000000E+00	0.0000000E+00	0.000000000000000E+00	0.0000000E+00	0.0000000E+00	0.0000000E+00	0.0000000E+00	0.0000000E+00	0.0000000E+00	0.0000000E+00	0.0000000E+00	0.0000000E+00	0.0000000E+00	0.0000000E+00	0.0000000E+00	0.0000000E+00	0.0000000E+00	0.000000000000000E+00
7.1968567E+03	1.1205776E+02	3.5166226E+01	0.0000000E+00	0.0000000E+00	0.000000000000000E+00	0.0000000E+00	0.0000000E+00	0.0000000E+00	0.0000000E+00	0.000000000000000E+00	0	0.0000000E+00	0.0000000E+00	0.000000000000000E+00	0.0000000E+00	0.0000000E+00	0.0000000E+00	0.0000000E+00	0.0000000E+00	0.0000000E+00	0.0000000E+00	0.0000000E+00	0.0000000E+00	0.0000000E+00	0.0000000E+00	0.0000000E+00	0.0000000E+00	0.0000000E+00	0.000000000000000E+00
5.1794747E+03	1.1690625E+02	4.6466377E+01	0.0000000E+00	0.0000000E+00	0.000000000000000E+00	0.0000000E+00	0.0000000E+00	0.0000000E+00	0.0000000E+00	0.000000000000000E+00	0	0.0000000E+00	0.0000000E+00	0.000000000000000E+00	0.0000000E+00	0.0000000E+00	0.0000000E+00	0.0000000E+00	0.0000000E+00	0.0000000E+00	0.0000000E+00	0.0000000E+00	0.0000000E+00	0.0000000E+00	0.0000000E+00	0.0000000E+00	0.0000000E+00	0.0000000E+00	0.000000000000000E+00
3.7275937E+03	1.2483457E+02	6.0852292E+01	0.0000000E+00	0.0000000E+00	0.000000000000000E+00	0.0000000E+00	0.0000000E+00	0.0000000E+00	0.0000000E+00	0.000000000000000E+00	0	0.0000000E+00	0.0000000E+00	0.000000000000000E+00	0.0000000E+00	0.0000000E+00	0.0000000E+00	0.0000000E+00	0.0000000E+00	0.0000000E+00	0.0000000E+00	0.0000000E+00	0.0000000E+00	0.0000000E+00	0.0000000E+00	0.0000000E+00	0.0000000E+00	0.0000000E+00	0.000000000000000E+00
2.6826958E+03	1.3777048E+02	7.8089353E+01	0.0000000E+00	0.0000000E+00	0.000000000000000E+00	0.0000000E+00	0.0000000E+00	0.0000000E+00	0.0000000E+00	0.000000000000000E+00	0	0.0000000E+00	0.0000000E+00	0.000000000000000E+00	0.0000000E+00	0.0000000E+00	0.0000000E+00	0.0000000E+00	0.0000000E+00	0.0000000E+00	0.0000000E+00	0.0000000E+00	0.0000000E+00	0.0000000E+00	0.0000000E+00	0.0000000E+00	0.0000000E+00	0.0000000E+00	0.000000000000000E+00
1.9306977E+03	1.5797170E+02	9.6480585E+01	0.0000000E+00	0.0000000E+00	0.000000000000000E+00	0.0000000E+00	0.0000000E+00	0.0000000E+00	0.0000000E+00	0.000000000000000E+00	0	0.0000000E+00	0.0000000E+00	0.000000000000000E+00	0.0000000E+00	0.0000000E+00	0.0000000E+00	0.0000000E+00	0.0000000E+00	0.0000000E+00	0.0000000E+00	0.0000000E+00	0.0000000E+00	0.0000000E+00	0.0000000E+00	0.0000000E+00	0.0000000E+00	0.0000000E+00	0.000000000000000E+00
1.3894955E+03	1.8663692E+02	1.1220463E+02	0.0000000E+00	0.0000000E+00	0.000000000000000E+00	0.0000000E+00	0.0000000E+00	0.0000000E+00	0.0000000E+00	0.000000000000000E+00	0	0.0000000E+00	0.0000000E+00	0.000000000000000E+00	0.0000000E+00	0.0000000E+00	0.0000000E+00	0.0000000E+00	0.0000000E+00	0.0000000E+00	0.0000000E+00	0.0000000E+00	0.0000000E+00	0.0000000E+00	0.0000000E+00	0.0000000E+00	0.0000000E+00	0.0000000E+00	0.000000000000000E+00
1.0000000E+03	2.2169083E+02	1.2039912E+02	0.0000000E+00	0.0000000E+00	0.000000000000000E+00	0.0000000E+00	0.0000000E+00	0.0000000E+00	0.0000000E+00	0.000000000000000E+00	0	0.0000000E+00	0.0000000E+00	0.000000000000000E+00	0.0000000E+00	0.0000000E+00	0.0000000E+00	0.0000000E+00	0.0000000E+00	0.0000000E+00	0.0000000E+00	0.0000000E+00	0.0000000E+00	0.0000000E+00	0.0000000E+00	0.0000000E+00	0.0000000E+00	0.0000000E+00	0.000000000000000E+00
7.1968567E+02	2.5743743E+02	1.1865060E+02	0.0000000E+00	0.0000000E+00	0.000000000000000E+00	0.0000000E+00	0.0000000E+00	0.0000000E+00	0.0000000E+00	0.000000000000000E+00	0	0.0000000E+00	0.0000000E+00	0.000000000000000E+00	0.0000000E+00	0.0000000E+00	0.0000000E+00	0.0000000E+00	0.0000000E+00	0.0000000E+00	0.0000000E+00	0.0000000E+00	0.0000000E+00	0.0000000E+00	0.0000000E+00	0.0000000E+00	0.0000000E+00	0.0000000E+00	0.000000000000000E+00
5.1794747E+02	2.8811836E+02	1.0931032E+02	0.0000000E+00	0.0000000E+00	0.000000000000000E+00	0.0000000E+00	0.0000000E+00	0.0000000E+00	0.0000000E+00	0.000000000000000E+00	0	0.0000000E+00	0.0000000E+00	0.000000000000000E+00	0.0000000E+00	0.0000000E+00	0.0000000E+00	0.0000000E+00	0.0000000E+00	0.0000000E+00	0.0000000E+00	0.0000000E+00	0.0000000E+00	0.0000000E+00	0.0000000E+00	0.0000000E+00	0.0000000E+00	0.0000000E+00	0.000000000000000E+00
3.7275937E+02	3.1156312E+02	9.7295700E+01	0.0000000E+00	0.0000000E+00	0.000000000000000E+00	0.0000000E+00	0.0000000E+00	0.0000000E+00	0.0000000E+00	0.000000000000000E+00	0	0.0000000E+00	0.0000000E+00	0.000000000000000E+00	0.0000000E+00	0.0000000E+00	0.0000000E+00	0.0000000E+00	0.0000000E+00	0.0000000E+00	0.0000000E+00	0.0000000E+00	0.0000000E+00	0.0000000E+00	0.0000000E+00	0.0000000E+00	0.0000000E+00	0.0000000E+00	0.000000000000000E+00
2.6826958E+02	3.2895894E+02	8.6553953E+01	0.0000000E+00	0.0000000E+00	0.000000000000000E+00	0.0000000E+00	0.0000000E+00	0.0000000E+00	0.0000000E+00	0.000000000000000E+00	0	0.0000000E+00	0.0000000E+00	0.000000000000000E+00	0.0000000E+00	0.0000000E+00	0.0000000E+00	0.0000000E+00	0.0000000E+00	0.0000000E+00	0.0000000E+00	0.0000000E+00	0.0000000E+00	0.0000000E+00	0.0000000E+00	0.0000000E+00	0.0000000E+00	0.0000000E+00	0.000000000000000E+00
1.9306977E+02	3.4263905E+02	7.8888676E+01	0.0000000E+00	0.0000000E+00	0.000000000000000E+00	0.0000000E+00	0.0000000E+00	0.0000000E+00	0.0000000E+00	0.000000000000000E+00	0	0.0000000E+00	0.0000000E+00	0.000000000000000E+00	0.0000000E+00	0.0000000E+00	0.0000000E+00	0.0000000E+00	0.0000000E+00	0.0000000E+00	0.0000000E+00	0.0000000E+00	0.0000000E+00	0.0000000E+00	0.0000000E+00	0.0000000E+00	0.0000000E+00	0.0000000E+00	0.000000000000000E+00
1.3894955E+02	3.5464930E+02	7.4587868E+01	0.0000000E+00	0.0000000E+00	0.000000000000000E+00	0.0000000E+00	0.0000000E+00	0.0000000E+00	0.0000000E+00	0.000000000000000E+00	0	0.0000000E+00	0.0000000E+00	0.000000000000000E+00	0.0000000E+00	0.0000000E+00	0.0000000E+00	0.0000000E+00	0.0000000E+00	0.0000000E+00	0.0000000E+00	0.0000000E+00	0.0000000E+00	0.0000000E+00	0.0000000E+00	0.0000000E+00	0.0000000E+00	0.0000000E+00	0.000000000000000E+00
1.0000000E+02	3.6639986E+02	7.3255940E+01	0.0000000E+00	0.0000000E+00	0.000000000000000E+00	0.0000000E+00	0.0000000E+00	0.0000000E+00	0.0000000E+00	0.000000000000000E+00	0	0.0000000E+00	0.0000000E+00	0.000000000000000E+00	0.0000000E+00	0.0000000E+00	0.0000000E+00	0.0000000E+00	0.0000000E+00	0.0000000E+00	0.0000000E+00	0.0000000E+00	0.0000000E+00	0.0000000E+00	0.0000000E+00	0.0000000E+00	0.0000000E+00	0.0000000E+00	0.000000000000000E+00
7.1968567E+01	3.7877795E+02	7.4295695E+01	0.0000000E+00	0.0000000E+00	0.000000000000000E+00	0.0000000E+00	0.0000000E+00	0.0000000E+00	0.0000000E+00	0.000000000000000E+00	0	0.0000000E+00	0.0000000E+00	0.000000000000000E+00	0.0000000E+00	0.0000000E+00	0.0000000E+00	0.0000000E+00	0.0000000E+00	0.0000000E+00	0.0000000E+00	0.0000000E+00	0.0000000E+00	0.0000000E+00	0.0000000E+00	0.0000000E+00	0.0000000E+00	0.0000000E+00	0.000000000000000E+00
5.1794747E+01	3.9232642E+02	7.7102203E+01	0.0000000E+00	0.0000000E+00	0.000000000000000E+00	0.0000000E+00	0.0000000E+00	0.0000000E+00	0.0000000E+00	0.000000000000000E+00	0	0.0000000E+00	0.0000000E+00	0.000000000000000E+00	0.0000000E+00	0.0000000E+00	0.0000000E+00	0.0000000E+00	0.0000000E+00	0.0000000E+00	0.0000000E+00	0.0000000E+00	0.0000000E+00	0.0000000E+00	0.0000000E+00	0.0000000E+00	0.0000000E+00	0.0000000E+00	0.000000000000000E+00
3.7275937E+01	4.0737045E+02	8.1114820E+01	0.0000000E+00	0.0000000E+00	0.000000000000000E+00	0.0000000E+00	0.0000000E+00	0.0000000E+00	0.0000000E+00	0.000000000000000E+00	0	0.0000000E+00	0.0000000E+00	0.000000000000000E+00	0.0000000E+00	0.0000000E+00	0.0000000E+00	0.0000000E+00	0.0000000E+00	0.0000000E+00	0.0000000E+00	0.0000000E+00	0.0000000E+00	0.0000000E+00	0.0000000E+00	0.0000000E+00	0.0000000E+00	0.0000000E+00	0.000000000000000E+00
2.6826958E+01	4.2408590E+02	8.5817296E+01	0.0000000E+00	0.0000000E+00	0.000000000000000E+00	0.0000000E+00	0.0000000E+00	0.0000000E+00	0.0000000E+00	0.000000000000000E+00	0	0.0000000E+00	0.0000000E+00	0.000000000000000E+00	0.0000000E+00	0.0000000E+00	0.0000000E+00	0.0000000E+00	0.0000000E+00	0.0000000E+00	0.0000000E+00	0.0000000E+00	0.0000000E+00	0.0000000E+00	0.0000000E+00	0.0000000E+00	0.0000000E+00	0.0000000E+00	0.000000000000000E+00
1.9306977E+01	4.4252790E+02	9.0727481E+01	0.0000000E+00	0.0000000E+00	0.000000000000000E+00	0.0000000E+00	0.0000000E+00	0.0000000E+00	0.0000000E+00	0.000000000000000E+00	0	0.0000000E+00	0.0000000E+00	0.000000000000000E+00	0.0000000E+00	0.0000000E+00	0.0000000E+00	0.0000000E+00	0.0000000E+00	0.0000000E+00	0.0000000E+00	0.0000000E+00	0.0000000E+00	0.0000000E+00	0.0000000E+00	0.0000000E+00	0.0000000E+00	0.0000000E+00	0.000000000000000E+00
1.3894955E+01	4.6263825E+02	9.5393174E+01	0.0000000E+00	0.0000000E+00	0.000000000000000E+00	0.0000000E+00	0.0000000E+00	0.0000000E+00	0.0000000E+00	0.000000000000000E+00	0	0.0000000E+00	0.0000000E+00	0.000000000000000E+00	0.0000000E+00	0.0000000E+00	0.0000000E+00	0.0000000E+00	0.0000000E+00	0.0000000E+00	0.0000000E+00	0.0000000E+00	0.0000000E+00	0.0000000E+00	0.0000000E+00	0.0000000E+00	0.0000000E+00	0.0000000E+00	0.000000000000000E+00
1.0000000E+01	4.8424552E+02	9.9399255E+01	0.0000000E+00	0.0000000E+00	0.000000000000000E+00	0.0000000E+00	0.0000000E+00	0.0000000E+00	0.0000000E+00	0.000000000000000E+00	0	0.0000000E+00	0.0000000E+00	0.000000000000000E+00	0.0000000E+00	0.0000000E+00	0.0000000E+00	0.0000000E+00	0.0000000E+00	0.0000000E+00	0.0000000E+00	0.0000000E+00	0.0000000E+00	0.0000000E+00	0.0000000E+00	0.0000000E+00	0.0000000E+00	0.0000000E+00	0.000000000000000E+00
7.1968567E+00	5.0706815E+02	1.0238533E+02	0.0000000E+00	0.0000000E+00	0.000000000000000E+00	0.0000000E+00	0.0000000E+00	0.0000000E+00	0.0000000E+00	0.000000000000000E+00	0	0.0000000E+00	0.0000000E+00	0.000000000000000E+00	0.0000000E+00	0.0000000E+00	0.0000000E+00	0.0000000E+00	0.0000000E+00	0.0000000E+00	0.0000000E+00	0.0000000E+00	0.0000000E+00	0.0000000E+00	0.0000000E+00	0.0000000E+00	0.0000000E+00	0.0000000E+00	0.000000000000000E+00
5.1794747E+00	5.3072749E+02	1.0406938E+02	0.0000000E+00	0.0000000E+00	0.000000000000000E+00	0.0000000E+00	0.0000000E+00	0.0000000E+00	0.0000000E+00	0.000000000000000E+00	0	0.0000000E+00	0.0000000E+00	0.000000000000000E+00	0.0000000E+00	0.0000000E+00	0.0000000E+00	0.0000000E+00	0.0000000E+00	0.0000000E+00	0.0000000E+00	0.0000000E+00	0.0000000E+00	0.0000000E+00	0.0000000E+00	0.0000000E+00	0.0000000E+00	0.0000000E+00	0.000000000000000E+00
3.7275937E+00	5.5477333E+02	1.0427060E+02	0.0000000E+00	0.0000000E+00	0.000000000000000E+00	0.0000000E+00	0.0000000E+00	0.0000000E+00	0.0000000E+00	0.000000000000000E+00	0	0.0000000E+00	0.0000000E+00	0.000000000000000E+00	0.0000000E+00	0.0000000E+00	0.0000000E+00	0.0000000E+00	0.0000000E+00	0.0000000E+00	0.0000000E+00	0.0000000E+00	0.0000000E+00	0.0000000E+00	0.0000000E+00	0.0000000E+00	0.0000000E+00	0.0000000E+00	0.000000000000000E+00
2.6826958E+00	5.7872084E+02	1.0292416E+02	0.0000000E+00	0.0000000E+00	0.000000000000000E+00	0.0000000E+00	0.0000000E+00	0.0000000E+00	0.0000000E+00	0.000000000000000E+00	0	0.0000000E+00	0.0000000E+00	0.000000000000000E+00	0.0000000E+00	0.0000000E+00	0.0000000E+00	0.0000000E+00	0.0000000E+00	0.0000000E+00	0.0000000E+00	0.0000000E+00	0.0000000E+00	0.0000000E+00	0.0000000E+00	0.0000000E+00	0.0000000E+00	0.0000000E+00	0.000000000000000E+00
1.9306977E+00	6.0209306E+02	1.0008268E+02	0.0000000E+00	0.0000000E+00	0.000000000000000E+00	0.0000000E+00	0.0000000E+00	0.0000000E+00	0.0000000E+00	0.000000000000000E+00	0	0.0000000E+00	0.0000000E+00	0.000000000000000E+00	0.0000000E+00	0.0000000E+00	0.0000000E+00	0.0000000E+00	0.0000000E+00	0.0000000E+00	0.0000000E+00	0.0000000E+00	0.0000000E+00	0.0000000E+00	0.0000000E+00	0.0000000E+00	0.0000000E+00	0.0000000E+00	0.000000000000000E+00
1.3894955E+00	6.2446168E+02	9.5902579E+01	0.0000000E+00	0.0000000E+00	0.000000000000000E+00	0.0000000E+00	0.0000000E+00	0.0000000E+00	0.0000000E+00	0.000000000000000E+00	0	0.0000000E+00	0.0000000E+00	0.000000000000000E+00	0.0000000E+00	0.0000000E+00	0.0000000E+00	0.0000000E+00	0.0000000E+00	0.0000000E+00	0.0000000E+00	0.0000000E+00	0.0000000E+00	0.0000000E+00	0.0000000E+00	0.0000000E+00	0.0000000E+00	0.0000000E+00	0.000000000000000E+00
1.0000000E+00	6.4547870E+02	9.0618128E+01	0.0000000E+00	0.0000000E+00	0.000000000000000E+00	0.0000000E+00	0.0000000E+00	0.0000000E+00	0.0000000E+00	0.000000000000000E+00	0	0.0000000E+00	0.0000000E+00	0.000000000000000E+00	0.0000000E+00	0.0000000E+00	0.0000000E+00	0.0000000E+00	0.0000000E+00	0.0000000E+00	0.0000000E+00	0.0000000E+00	0.0000000E+00	0.0000000E+00	0.0000000E+00	0.0000000E+00	0.0000000E+00	0.0000000E+00	0.000000000000000E+00

