EXPLAIN
TAG	EISPOT
TITLE	LABEL		Test &Identifier
DATE	LABEL	DD-M-YYYY	Date
TIME	LABEL	HH:MM:SS	Time
NOTES	NOTES	3	&Notes...
	
PSTAT	PSTAT	REFxxx-yyyyy	Potentiostat
VDC	POTEN	0,00000E+000	T	DC &Voltage (V)
FREQINIT	QUANT	1,00000E+005	Initial Fre&q. (Hz)
FREQFINAL	QUANT	1,00000E-001	Final Fre&q. (Hz)
PTSPERDEC	QUANT	9,00000E+000	Points/&decade
VAC	QUANT	3,00000E+000	AC &Voltage (mV rms)
AREA	QUANT	2,00000E-002	&Area (cm^2)
CONDIT	TWOPARAM	F	6,00000E+001	2,45000E-001	Conditionin&g	Time(s)	E(V)
DELAY	TWOPARAM	T	1,20000E+002	1,00000E-001	Init. De&lay	Time(s)	Stab.(mV/s)
SPEED	SELECTOR	2	&Optimize for:
THD	SELECTOR	0	T&HD
DRIFTCOR	SELECTOR	1	&Drift Correction
ZGUESS	QUANT	5,00000E+002	E&stimated Z (ohms)
OCVCURVE	TABLE	41
	Pt	T	Vf	Vm	Ach	Over	Temp
	#	s	V vs. Ref.	V	V	bits	deg C
	0	0,25	3,69103E-001	3,69103E-001	4,90065E-004	...........	-327,67
	1	0,5	3,69103E-001	3,69102E-001	4,78327E-004	...........	-327,67
	2	0,75	3,69103E-001	3,69105E-001	4,84996E-004	...........	-327,67
	3	1	3,69103E-001	3,69103E-001	4,75059E-004	...........	-327,67
	4	1,25	3,69103E-001	3,69100E-001	4,91599E-004	...........	-327,67
	5	1,5	3,69103E-001	3,69103E-001	4,77794E-004	...........	-327,67
	6	1,75	3,69103E-001	3,69106E-001	4,90932E-004	...........	-327,67
	7	2	3,69103E-001	3,69106E-001	4,79928E-004	...........	-327,67
	8	2,25	3,69104E-001	3,69106E-001	4,89798E-004	...........	-327,67
	9	2,5	3,69105E-001	3,69106E-001	4,78060E-004	...........	-327,67
	10	2,75	3,69106E-001	3,69110E-001	4,88464E-004	...........	-327,67
	11	3	3,69106E-001	3,69110E-001	4,80528E-004	...........	-327,67
	12	3,25	3,69107E-001	3,69112E-001	4,90465E-004	...........	-327,67
	13	3,5	3,69109E-001	3,69111E-001	4,74792E-004	...........	-327,67
	14	3,75	3,69110E-001	3,69115E-001	4,88931E-004	...........	-327,67
	15	4	3,69111E-001	3,69109E-001	4,78194E-004	...........	-327,67
	16	4,25	3,69112E-001	3,69115E-001	4,86530E-004	...........	-327,67
	17	4,5	3,69112E-001	3,69116E-001	4,74592E-004	...........	-327,67
	18	4,75	3,69113E-001	3,69118E-001	4,84863E-004	...........	-327,67
	19	5	3,69114E-001	3,69119E-001	4,80328E-004	...........	-327,67
	20	5,25	3,69115E-001	3,69117E-001	4,89398E-004	...........	-327,67
	21	5,5	3,69117E-001	3,69119E-001	4,75059E-004	...........	-327,67
	22	5,75	3,69118E-001	3,69126E-001	4,87331E-004	...........	-327,67
	23	6	3,69119E-001	3,69126E-001	4,77393E-004	...........	-327,67
	24	6,25	3,69121E-001	3,69124E-001	4,85063E-004	...........	-327,67
	25	6,5	3,69123E-001	3,69130E-001	4,75059E-004	...........	-327,67
	26	6,75	3,69125E-001	3,69131E-001	4,90932E-004	...........	-327,67
	27	7	3,69127E-001	3,69132E-001	4,76326E-004	...........	-327,67
	28	7,25	3,69129E-001	3,69132E-001	4,87397E-004	...........	-327,67
	29	7,5	3,69130E-001	3,69146E-001	4,77527E-004	...........	-327,67
	30	7,75	3,69133E-001	3,69149E-001	4,84663E-004	...........	-327,67
	31	8	3,69137E-001	3,69148E-001	4,78861E-004	...........	-327,67
	32	8,25	3,69142E-001	3,69147E-001	4,89665E-004	...........	-327,67
	33	8,5	3,69145E-001	3,69151E-001	4,83929E-004	...........	-327,67
	34	8,75	3,69148E-001	3,69152E-001	4,86664E-004	...........	-327,67
	35	9	3,69149E-001	3,69154E-001	4,82062E-004	...........	-327,67
	36	9,25	3,69151E-001	3,69158E-001	4,89065E-004	...........	-327,67
	37	9,5	3,69152E-001	3,69162E-001	4,78727E-004	...........	-327,67
	38	9,75	3,69155E-001	3,69159E-001	4,86130E-004	...........	-327,67
	39	10	3,69157E-001	3,69162E-001	4,73992E-004	...........	-327,67
	40	10,25	3,69159E-001	3,69165E-001	4,85997E-004	...........	-327,67
EOC	QUANT	0,369159	Open Circuit (V)
PSTATMODEL	IQUANT	87	Pstat Model
PSTATSECTION	LABEL	REFxxx-yyyyy	Pstat Section
PSTATSERIALNO	LABEL	yyyyy	Pstat Serial Number
CTRLMODE	IQUANT	1	Control Mode
ELECTROMETER	IQUANT	0	RE=0 or CS=1
IESTAB	IQUANT	0	I/E Stability
CASPEED	IQUANT	3	Control Amp Speed
CONVENTION	IQUANT	1	Current Convention
ICHRANGE	IQUANT	2	Ich Range
ICHRANGEMODE	TOGGLE	F	Ich Auto Range
ICHOFFSETENABLE	TOGGLE	T	Ich Offset Enable
ICHOFFSET	QUANT	0	Ich Offset (V)
ICHFILTER	IQUANT	3	Ich Filter
VCHRANGE	IQUANT	2	Vch Range
VCHRANGEMODE	TOGGLE	F	Vch Auto Range
VCHOFFSETENABLE	TOGGLE	T	Vch Offset Enable
VCHOFFSET	QUANT	0	Vch Offset (V)
VCHFILTER	IQUANT	3	Vch Filter
ACHRANGE	IQUANT	2	Ach Range
ACHOFFSETENABLE	TOGGLE	F	Ach Offset Enable
ACHOFFSET	QUANT	0	Ach Offset (V)
ACHFILTER	IQUANT	1	Ach Filter
IERANGELOWERLIMIT	IQUANT	1	I/E Range Lower Limit
IERANGEMODE	TOGGLE	F	I/E AutoRange
IERANGE	IQUANT	9	I/E Range
POSFEEDENABLE	TOGGLE	F	Positive Feedback IR Comp
POSFEEDRESISTANCE	QUANT	0	Positive Feedback Resistance (ohm)
ACHSELECT	IQUANT	4	Ach Select
SENSECABLEID	IQUANT	7	Sense Cable ID
PWRCABLEID	IQUANT	7	Power Cable ID
DCCALDATE	LABEL	3/13/2023	DC Calibration Date
ACCALDATE	LABEL	1/17/2022	AC Calibration Date
THERMOSELECT	IQUANT	1	Thermo Select
FRAMEWORKVERSION	LABEL	7.9.0	Framework Version
INSTRUMENTVERSION	LABEL	4.60	Instrument Version
ZCURVE	TABLE
	Pt	Time	Freq	Zreal	Zimag	Zsig	Zmod	Zphz	ZrealDrCor	ZimagDrCor	ZmodDrCor	ZphzDrCor	Idc	Vdc	IERange
	#	s	Hz	ohm	ohm	V	ohm	°	ohm	ohm	ohm	°	A	V	#
	0	2	100078,1	691,6887	-148,9397	1	707,5424	-12,15182	691,6887	-148,9397	707,5424	-12,15182	1,848949E-009	0,3692144	7
	1	5	77484,38	725,6578	-50,27626	1	727,3974	-3,96333	725,6578	-50,27626	727,3974	-3,96333	-4,533348E-009	0,3692539	8
	2	9	59953,13	717,0076	-100,4915	1	724,0154	-7,978268	717,0076	-100,4915	724,0154	-7,978268	-5,253646E-010	0,369262	7
	3	12	46453,12	732,0071	-36,71453	1	732,9273	-2,87132	732,0071	-36,71453	732,9273	-2,87132	1,467127E-008	0,3692999	8
	4	16	35953,12	729,3983	-69,64388	1	732,7156	-5,45414	729,3983	-69,64388	732,7156	-5,45414	9,772734E-010	0,3693118	7
	5	18	27890,63	732,5392	-59,28186	1	734,9341	-4,626666	732,5392	-59,28186	734,9341	-4,626666	-2,492804E-009	0,3693085	7
	6	21	21609,38	735,2628	-53,00708	1	737,1711	-4,123473	735,2628	-53,00708	737,1711	-4,123473	-1,285869E-009	0,3693199	7
	7	24	16734,38	736,9302	-49,64467	1	738,6005	-3,854013	736,9302	-49,64467	738,6005	-3,854013	9,884289E-010	0,3693428	7
	8	27	12984,38	739,4242	-48,63584	1	741,022	-3,763226	739,4242	-48,63584	741,022	-3,763226	-1,449052E-009	0,3693559	7
	9	30	10078,13	741,355	-50,15969	1	743,0499	-3,870703	741,355	-50,15969	743,0499	-3,870703	-2,752643E-010	0,3693747	7
	10	32	7674,632	744,7241	-54,43777	1	746,7111	-4,180766	744,7241	-54,43777	746,7111	-4,180766	-5,295853E-010	0,3693927	7
	11	35	6046,875	746,9325	-60,54636	1	749,3824	-4,634264	746,9325	-60,54636	749,3824	-4,634264	4,054481E-010	0,3694125	7
	12	37	4641,544	750,6866	-71,54242	1	754,088	-5,443997	750,6866	-71,54242	754,088	-5,443997	1,188313E-009	0,3694324	7
	13	40	3609,375	755,0595	-84,25449	1	759,7458	-6,367099	755,0595	-84,25449	759,7458	-6,367099	6,391492E-010	0,3694303	7
	14	42	2803,309	760,5265	-100,1867	1	767,097	-7,504554	760,5265	-100,1867	767,097	-7,504554	-9,359269E-010	0,3694689	7
	15	45	2159,927	767,2831	-121,3827	1	776,8251	-8,989582	767,2831	-121,3827	776,8251	-8,989582	1,774445E-009	0,3694867	7
	16	47	1667,668	775,7123	-148,135	1	789,73	-10,8114	775,7123	-148,135	789,73	-10,8114	9,251764E-010	0,3695014	7
	17	50	1282,429	784,3904	-181,7039	1	805,1612	-13,04251	784,3904	-181,7039	805,1612	-13,04251	5,17133E-010	0,3695146	7
	18	53	998,264	794,6747	-221,3881	1	824,9368	-15,56729	794,6747	-221,3881	824,9368	-15,56729	3,315677E-010	0,3695319	7
	19	55	781,25	806,6536	-270,6548	1	850,8491	-18,54804	806,6536	-270,6548	850,8491	-18,54804	1,550049E-009	0,3695457	7
	20	57	597,4265	821,5532	-338,0699	1	888,3923	-22,36721	821,5532	-338,0699	888,3923	-22,36721	2,825971E-010	0,3695596	7
	21	60	460,3795	839,0825	-421,4494	1	938,9777	-26,66919	839,0825	-421,4494	938,9777	-26,66919	6,498915E-009	0,3695907	7
	22	63	357,5212	859,9046	-523,3486	1	1006,643	-31,32521	859,9046	-523,3486	1006,643	-31,32521	7,16123E-009	0,3696085	7
	23	65	278,0721	885,412	-650,5948	1	1098,739	-36,30819	885,412	-650,5948	1098,739	-36,30819	6,294876E-009	0,3696077	7
	24	68	217,0139	917,6201	-810,2469	1	1224,143	-41,4441	917,6201	-810,2469	1224,143	-41,4441	3,161034E-009	0,3696305	6
	25	70	167,4107	961,152	-1016,146	1	1398,701	-46,59315	961,152	-1016,146	1398,701	-46,59315	2,572827E-009	0,3696522	6
	26	73	130,2083	1015,705	-1266,156	1	1623,209	-51,26356	1015,705	-1266,156	1623,209	-51,26356	2,57597E-009	0,369653	6
	27	75	100,4464	1090,251	-1588,981	1	1927,046	-55,54473	1090,251	-1588,981	1927,046	-55,54473	2,874996E-009	0,3696778	6
	28	78	77,26649	1190,17	-1997,4	1	2325,105	-59,21099	1190,17	-1997,4	2325,105	-59,21099	2,534021E-009	0,3696952	6
	29	81	60,09615	1316,824	-2482,193	1	2809,859	-62,05368	1316,824	-2482,193	2809,859	-62,05368	2,500737E-009	0,3697092	6
	30	83	45,07212	1512,723	-3177,465	1	3519,178	-64,54188	1512,723	-3177,465	3519,178	-64,54188	2,706976E-009	0,3697234	6
	31	86	35,51136	1728,517	-3889,544	1	4256,328	-66,03959	1728,517	-3889,544	4256,328	-66,03959	2,727218E-009	0,3697367	6
	32	89	27,90178	2010,962	-4758,441	1	5165,92	-67,09063	2010,962	-4758,441	5165,92	-67,09063	3,34918E-009	0,3697572	6
	33	91	21,70139	2386,535	-5850,389	1	6318,434	-67,8081	2386,535	-5850,389	6318,434	-67,8081	1,405282E-009	0,369643	6
	34	94	16,74107	2894,602	-7231,532	1	7789,337	-68,18501	2894,602	-7231,532	7789,337	-68,18501	-1,835142E-009	0,3696521	6
	35	96	12,80738	3580,496	-8944,372	1	9634,4	-68,18342	3580,496	-8944,372	9634,4	-68,18342	5,898815E-011	0,3696837	6
	36	99	9,93114	4412,689	-10920,96	1	11778,76	-67,99849	4412,689	-10920,96	11778,76	-67,99849	-1,662357E-010	0,3697048	6
	37	101	7,659314	5509,588	-13336,13	1	14429,41	-67,55289	5509,588	-13336,13	14429,41	-67,55289	-3,880649E-010	0,3697131	5
	38	104	5,978954	6819,833	-16062,94	1	17450,73	-66,99541	6821,895	-16059,26	17448,16	-66,98446	-2,316425E-011	0,3697173	5
	39	108	4,595588	8559,722	-19516,52	1	21311,11	-66,3183	8563,828	-19509,72	21306,54	-66,30084	-4,321232E-011	0,3697301	5
	40	112	3,605769	10554,4	-23242,91	1	25527,01	-65,57763	10557,58	-23240,8	25526,4	-65,56915	1,839077E-010	0,3697481	5
	41	117	2,763856	13262,58	-28069,86	1	31045,34	-64,70998	13274,24	-28062,21	31043,41	-64,68449	1,066638E-010	0,3697758	5
	42	121	2,146291	16482,52	-33465,65	1	37304,47	-63,77881	16483,55	-33451,79	37292,49	-63,76797	1,544816E-010	0,3697893	5
	43	127	1,674107	20332,48	-39620,37	1	44532,95	-62,8339	20335,59	-39598,59	44514,99	-62,81754	1,927304E-010	0,3698079	5
	44	132	1,302083	25064,96	-46782,13	1	53073,71	-61,81845	25071	-46756,13	53053,66	-61,79944	2,455002E-010	0,3698252	5
	45	139	0,999041	31120,95	-55494,81	1	63625,37	-60,71672	31132,39	-55442,32	63585,2	-60,68459	2,969943E-010	0,3698335	5
	46	146	0,78125	37809,68	-64772,41	1	75000,25	-59,72655	37819	-64724,82	74963,85	-59,70207	3,818345E-010	0,36984	5
	47	156	0,6009615	46430,24	-76069,74	1	89119,99	-58,6016	46448,56	-76016,18	89083,83	-58,5736	4,589246E-010	0,3698588	5
	48	168	0,46875	56004,33	-88209,37	1	104486,3	-57,58844	56047,34	-88172,4	104478,1	-57,55767	5,12371E-010	0,369878	5
	49	183	0,3605769	68037,41	-102886,6	1	123348	-56,52391	68062,5	-102807,7	123296,1	-56,49396	5,680366E-010	0,3698875	5
	50	202	0,2790179	81882,74	-119193	1	144609	-55,51186	81897,93	-119094	144536	-55,48469	5,478126E-010	0,3699106	4
	51	226	0,2160138	97944	-137614,9	1	168910,9	-54,55959	97967,4	-137540,1	168863,5	-54,53839	5,847203E-010	0,3699264	4
	52	256	0,1674107	116746,1	-158218,3	1	196628,2	-53,57713	116770,1	-158056,1	196512,1	-53,54342	6,700264E-010	0,3699368	4
	53	293	0,1294889	138402,3	-181451,5	1	228210,1	-52,66539	138404	-181246,1	228047,9	-52,63375	7,561293E-010	0,3699628	4
	54	339	0,1001603	163443,2	-207897,9	1	264452,7	-51,82661	163521,3	-207613,7	264277,6	-51,77522	7,705361E-010	0,3699777	4
